LTspice 24.0.12 for Windows
Circuit: * C:\Users\aguse\OneDrive\Escritorio\Fiuba\2025\TPP\0.1 PRELIMINAR\Simulaciones\Preamplificador\PREAMP_INA2126.asc
Start Time: Thu Jun 19 23:38:10 2025
solver = Normal
Maximum thread count: 16



Direct Newton iteration for .op point succeeded.
Semiconductor Device Operating Points:
                        --- Diodes ---
Name:   d:u2:1:c    d:u2:1:e    d:u2:1:lp   d:u2:1:ln   d:u2:1:p
Model:   u2:1:dx     u2:1:dx     u2:1:dx     u2:1:dx     u2:1:dx
Id:     -1.40e-11   -1.40e-11   -2.00e-12   -2.00e-12   -3.00e-11
Vd:     -1.40e+01   -1.40e+01   -2.00e+00   -2.00e+00   -3.00e+01
Req:     1.00e+12    1.00e+12    1.00e+12    1.00e+12    1.00e+12
CAP:     0.00e+00    0.00e+00    0.00e+00    0.00e+00    0.00e+00

Name:   d:u2:2:c    d:u2:2:e    d:u2:2:lp   d:u2:2:ln   d:u2:2:p
Model:   u2:2:dx     u2:2:dx     u2:2:dx     u2:2:dx     u2:2:dx
Id:     -1.40e-11   -1.40e-11    6.04e-06   -4.59e-12   -3.00e-11
Vd:     -1.40e+01   -1.40e+01    5.88e-01   -4.59e+00   -3.00e+01
Req:     1.00e+12    1.00e+12    4.29e+03    1.00e+12    1.00e+12
CAP:     0.00e+00    0.00e+00    0.00e+00    0.00e+00    0.00e+00

                        --- Bipolar Transistors ---
Name:    q:u2:1:1    q:u2:1:2    q:u2:2:1    q:u2:2:2
Model:    u2:1:qx     u2:1:qx     u2:2:qx     u2:2:qx
Ib:      -1.99e-08   -1.99e-08   -3.98e-08   -1.32e-11
Ic:      -2.99e-06   -2.99e-06   -5.98e-06   -4.22e-09
Vbe:     -5.70e-01   -5.70e-01   -5.88e-01   -4.00e-01
Vbc:      1.50e+01    1.50e+01    1.49e+01    1.52e+01
Vce:     -1.55e+01   -1.55e+01   -1.55e+01   -1.56e+01
BetaDC:   1.50e+02    1.50e+02    1.50e+02    3.19e+02
Gm:       1.16e-04    1.16e-04    2.31e-04    1.62e-07
Rpi:      1.30e+06    1.30e+06    6.49e+05    9.22e+08
Rx:       0.00e+00    0.00e+00    0.00e+00    0.00e+00
Ro:       0.00e+00    0.00e+00    0.00e+00    0.00e+00
Cbe:      0.00e+00    0.00e+00    0.00e+00    0.00e+00
Cbc:      0.00e+00    0.00e+00    0.00e+00    0.00e+00
Cjs:      0.00e+00    0.00e+00    0.00e+00    0.00e+00
BetaAC:   1.50e+02    1.50e+02    1.50e+02    1.50e+02
Cbx:      0.00e+00    0.00e+00    0.00e+00    0.00e+00
Ft:       0.00e+00    0.00e+00    0.00e+00    0.00e+00







































































































































































































































































































































































tnom = 27
temp = 27
method = modified trap
Total elapsed time: 7.552 seconds.

